
**** 05/26/21 11:45:26 ******* PSpice 17.4.0 (Nov 2018) ******* ID# 0 ********

 ** Profile: "SCHEMATIC1-TransientAnalysis"  [ C:\Users\a0232073\Downloads\OPA365\OPA365-PSpiceFiles\SCHEMATIC1\TransientAnalysis.sim


 ****     CIRCUIT DESCRIPTION


******************************************************************************




** Creating circuit file "TransientAnalysis.cir" 
** WARNING: THIS AUTOMATICALLY GENERATED FILE MAY BE OVERWRITTEN BY SUBSEQUENT SIMULATIONS

*Libraries: 
* Profile Libraries :
.INC "C:\Users\a0232073\Downloads\OPA365\OPA365-PSpiceFiles\SCHEMATIC1\TransientAnalysis\TransientAnalysis_profile.inc" 
* Local Libraries :
* From [PSPICE NETLIST] section of C:\SPB_Data\cdssetup\OrCAD_PSpiceTIPSpice_Install\17.4.0\PSpice.ini file:

**** INCLUDING TransientAnalysis_profile.inc ****
.LIB    ".\OPA365.lib" 

**** RESUMING TransientAnalysis.cir ****
.lib "nom_pspti.lib" 
.lib "nom.lib" 

*Analysis directives: 
.TRAN  0 5000ns 0 1e-9 
.OPTIONS ADVCONV
.OPTIONS FILEMODELSEARCH
.PROBE64 N([VOUT])
.INC "..\SCHEMATIC1.net" 



**** INCLUDING SCHEMATIC1.net ****
* source OPA365
X_U1         N01370 N01210 VCC VEE VOUT OPA365
V_V1         VCC 0 5Vdc
V_V2         VEE 0 0Vdc
V_V3         VINP 0  AC 1
+SIN 0 0.1 1e6 0 0 0
R_Rload         VREF VOUT  1k TC=0,0 
V_V4         VREF 0 2.5Vdc
R_R2         0 N01210  1k TC=0,0 
R_R1         N01210 VOUT  10k TC=0,0 
R_R3         VINP N01370  1k TC=0,0 
R_R4         N01370 VREF  10k TC=0,0 

**** RESUMING TransientAnalysis.cir ****
.END

**** 05/26/21 11:45:26 ******* PSpice 17.4.0 (Nov 2018) ******* ID# 0 ********

 ** Profile: "SCHEMATIC1-TransientAnalysis"  [ C:\Users\a0232073\Downloads\OPA365\OPA365-PSpiceFiles\SCHEMATIC1\TransientAnalysis.sim


 ****     Diode MODEL PARAMETERS


******************************************************************************




               X_U1.DVN        X_U1.DIN        X_U1.DD         
          IS  100.000000E-18   10.000000E-15   10.000000E-15 
          KF   80.000000E-15                                 


**** 05/26/21 11:45:26 ******* PSpice 17.4.0 (Nov 2018) ******* ID# 0 ********

 ** Profile: "SCHEMATIC1-TransientAnalysis"  [ C:\Users\a0232073\Downloads\OPA365\OPA365-PSpiceFiles\SCHEMATIC1\TransientAnalysis.sim


 ****     BJT MODEL PARAMETERS


******************************************************************************




               X_U1.QPL        X_U1.QNL        
               PNP             NPN             
       LEVEL    1               1            
          IS  100.000000E-18  100.000000E-18 
          BF  100             100            
          NF    1               1            
          BR    1               1            
          NR    1               1            
         ISS    0               0            
          RE    0               0            
          RC    0               0            
         CJE    0               0            
         VJE     .75             .75         
         CJC    0               0            
         VJC     .75             .75         
         MJC     .33             .33         
        XCJC    1               1            
         CJS    0               0            
         VJS     .75             .75         
          KF    0               0            
          AF    1               1            
          CN    2.2             2.42         
           D     .52             .87         


**** 05/26/21 11:45:26 ******* PSpice 17.4.0 (Nov 2018) ******* ID# 0 ********

 ** Profile: "SCHEMATIC1-TransientAnalysis"  [ C:\Users\a0232073\Downloads\OPA365\OPA365-PSpiceFiles\SCHEMATIC1\TransientAnalysis.sim


 ****     Junction FET MODEL PARAMETERS


******************************************************************************




               X_U1.JI         
               NJF             
         VTO   -2            
        BETA  100.000000E-06 
          IS    1.000000E-18 


**** 05/26/21 11:45:26 ******* PSpice 17.4.0 (Nov 2018) ******* ID# 0 ********

 ** Profile: "SCHEMATIC1-TransientAnalysis"  [ C:\Users\a0232073\Downloads\OPA365\OPA365-PSpiceFiles\SCHEMATIC1\TransientAnalysis.sim


 ****     MOSFET MODEL PARAMETERS


******************************************************************************




               X_U1.POUT       X_U1.NOUT       X_U1.PIN        
               PMOS            NMOS            PMOS            
       LEVEL    1               1               1            
           L  100.000000E-06  100.000000E-06  100.000000E-06 
           W  100.000000E-06  100.000000E-06  100.000000E-06 
         VTO    -.7              .7             -.7          
          KP  200.000000E-06  200.000000E-06  200.000000E-06 
       GAMMA    0               0               0            
         PHI     .6              .6              .6          
      LAMBDA    0               0               0            
          IS   10.000000E-15   10.000000E-15   10.000000E-15 
          JS    0               0               0            
          PB     .8              .8              .8          
        PBSW     .8              .8              .8          
          CJ    0               0               0            
        CJSW    0               0               0            
        CGSO    0               0               0            
        CGDO    0               0               0            
        CGBO    0               0               0            
         TOX    0               0               0            
          XJ    0               0               0            
       UCRIT   10.000000E+03   10.000000E+03   10.000000E+03 
      DIOMOD    1               1               1            
         VFB    0               0               0            
        LETA    0               0               0            
        WETA    0               0               0            
          U0    0               0               0            
        TEMP    0               0               0            
         VDD    5               5               5            
       XPART    0               0               0            


**** 05/26/21 11:45:26 ******* PSpice 17.4.0 (Nov 2018) ******* ID# 0 ********

 ** Profile: "SCHEMATIC1-TransientAnalysis"  [ C:\Users\a0232073\Downloads\OPA365\OPA365-PSpiceFiles\SCHEMATIC1\TransientAnalysis.sim


 ****     INITIAL TRANSIENT SOLUTION       TEMPERATURE =   27.000 DEG C


******************************************************************************



 NODE   VOLTAGE     NODE   VOLTAGE     NODE   VOLTAGE     NODE   VOLTAGE


(  VCC)    5.0000  (  VEE)    0.0000  ( VINP)    0.0000  ( VOUT)    2.5000      

( VREF)    2.5000  (N01210)     .2273 (N01370)     .2273 (X_U1.6)     .6768     

(X_U1.7)     .0061 (X_U1.8)    0.0000 (X_U1.9)    1.0058 (X_U1.10)    1.0060    

(X_U1.11)    1.0058                   (X_U1.12)     .0061                       

(X_U1.13)    4.9912                   (X_U1.14)    4.9912                       

(X_U1.15)    4.9941                   (X_U1.16)     .0040                       

(X_U1.17)    2.4796                   (X_U1.18)    2.4796                       

(X_U1.19)    4.9961                   (X_U1.20)    5.0000                       

(X_U1.21)     .0039                   (X_U1.22)    2.5000                       

(X_U1.23)     .5955                   (X_U1.24)     .5955                       

(X_U1.25)     .7147                   (X_U1.26)     .7147                       

(X_U1.27)     .2273                   (X_U1.28)     .2273                       

(X_U1.29)    5.0000                   (X_U1.30)    0.0000                       

(X_U1.31)     .2273                   (X_U1.32)     .2273                       

(X_U1.33) 500.0E-06                   (X_U1.34)    0.0000                       

(X_U1.35) 22.73E-06                   (X_U1.36)     .2273                       

(X_U1.37)     .2273                   (X_U1.38)     .2273                       

(X_U1.39)     .2273                   (X_U1.40)    2.5000                       

(X_U1.41)    2.4960                   (X_U1.42)     .8013                       

(X_U1.43)    2.5058                   (X_U1.44)    4.1770                       

(X_U1.45)    4.2002                   (X_U1.46)     .2715                       

(X_U1.47)     .2273                   (X_U1.48)     .2715                       

(X_U1.49)     .2273                   (X_U1.50)     .7998                       

(X_U1.51)    4.1770                   (X_U1.52)     .8013                       

(X_U1.53)    2.5000                   (X_U1.54)    4.3023                       

(X_U1.55)     .2273                   (X_U1.56)     .1060                       

(X_U1.57)    4.1526                   (X_U1.58)     .3000                       

(X_U1.59)    2.5000                   (X_U1.60)    3.6212                       

(X_U1.61)  -17.7290                   (X_U1.62)     .8013                       

(X_U1.63)    4.1770                   (X_U1.64)    1.0000                       

(X_U1.65)-73.07E-06                   (X_U1.66)     .6551                       

(X_U1.67) 99.39E-06                   (X_U1.68)    -.0568                       

(X_U1.69)  -73.0570                   




    VOLTAGE SOURCE CURRENTS
    NAME         CURRENT

    V_V1        -4.882E-03
    V_V2         4.654E-03
    V_V3         2.273E-04
    V_V4        -2.273E-04
    X_U1.V93    -4.337E-19
    X_U1.V95     1.810E-04
    X_U1.V113    9.939E-11
    X_U1.V119    7.307E-11
    X_U1.V120   -2.908E-13
    X_U1.V121   -1.000E-06

    TOTAL POWER DISSIPATION   2.51E-02  WATTS



          JOB CONCLUDED

**** 05/26/21 11:45:26 ******* PSpice 17.4.0 (Nov 2018) ******* ID# 0 ********

 ** Profile: "SCHEMATIC1-TransientAnalysis"  [ C:\Users\a0232073\Downloads\OPA365\OPA365-PSpiceFiles\SCHEMATIC1\TransientAnalysis.sim


 ****     JOB STATISTICS SUMMARY


******************************************************************************



  License check-out time            =       29.25
  Total job time (using Solver 1)   =        2.55
